# vsim -c -coverage -do "log -r /*; coverage save -onexit; run -all; quit" work.top "+UVM_TESTNAME=wrap_4_test" -wlf wave3.wlf 
# Start time: 23:52:52 on Jul 10,2025
# ** Note: (vsim-3813) Design is being optimized due to module recompilation...
# //  Questa Sim-64
# //  Version 2021.1 win64 Jan 19 2021
# //
# //  Copyright 1991-2021 Mentor Graphics Corporation
# //  All Rights Reserved.
# //
# //  QuestaSim and its associated documentation contain trade
# //  secrets and commercial or financial information that are the property of
# //  Mentor Graphics Corporation and are privileged, confidential,
# //  and exempt from disclosure under the Freedom of Information Act,
# //  5 U.S.C. Section 552. Furthermore, this information
# //  is prohibited from disclosure under the Trade Secrets Act,
# //  18 U.S.C. Section 1905.
# //
# Loading sv_std.std
# Loading work.ahb_if(fast)
# Loading work.apb_if(fast)
# Loading mtiUvm.uvm_pkg(fast)
# Loading work.test_pkg(fast)
# Loading mtiUvm.questa_uvm_pkg(fast)
# Loading work.top(fast)
# Loading work.ahb_if(fast__2)
# Loading work.apb_if(fast__2)
# Loading work.rtl_top(fast)
# Loading work.ahb(fast)
# Loading work.apb_controller(fast)
# Loading work.apb(fast)
# Loading C:/questasim64_2021.1/uvm-1.1d\win64\uvm_dpi.dll
# ** Warning: (vsim-8634) Code was not compiled with coverage options.
# log -r /*
#  coverage save -onexit
# coverage save ... <file>
# OPTIONS:
# [-assert] [-codeAll] [-code [bcefs(t|x)]] [-cvg] [-directive]
# [-instance <pathname>] [-norecursive]
# [-du <duname>] [-empty] [-onexit] [-prune <path>] [-noadaptive] [-nocoveragesaveparam]
# [-testname <name> | [-ovmtestname | -uvmtestname | -seed]+ ]
#  run -all
# ----------------------------------------------------------------
# UVM-1.1d
# (C) 2007-2013 Mentor Graphics Corporation
# (C) 2007-2013 Cadence Design Systems, Inc.
# (C) 2006-2013 Synopsys, Inc.
# (C) 2011-2013 Cypress Semiconductor Corp.
# ----------------------------------------------------------------
# 
#   ***********       IMPORTANT RELEASE NOTES         ************
# 
#   You are using a version of the UVM library that has been compiled
#   with `UVM_NO_DEPRECATED undefined.
#   See http://www.eda.org/svdb/view.php?id=3313 for more details.
# 
#   You are using a version of the UVM library that has been compiled
#   with `UVM_OBJECT_MUST_HAVE_CONSTRUCTOR undefined.
#   See http://www.eda.org/svdb/view.php?id=3770 for more details.
# 
#       (Specify +UVM_NO_RELNOTES to turn off this notice)
# 
# UVM_INFO verilog_src/questa_uvm_pkg-1.2/src/questa_uvm_pkg.sv(277) @ 0: reporter [Questa UVM] QUESTA_UVM-1.2.3
# UVM_INFO verilog_src/questa_uvm_pkg-1.2/src/questa_uvm_pkg.sv(278) @ 0: reporter [Questa UVM]  questa_uvm::init(+struct)
# UVM_INFO @ 0: reporter [RNTST] Running test wrap_4_test...
# SSSSSSSSSSSSSSSSSSSSSSSSSSSSSSS
# inside DEFAULT state                   5
#                    6 ENTERED:&&
#                    6 ENTERED:&&
#                    6 ENTERED:&&
# AHB MONITOR STARTS COLLECTING DATA AT :                   15
# AHB DRIVING STARTS AT :                   15
# ADDRESS PHASE STARTS DRIVING :                   15
#                   16 ENTERED:&&
#                   25 ENTERED:&&
# DATA PHASE STARTS DRIVING :                   25
# UVM_INFO ../ahb_agt_top/h_driver.sv(84) @ 25: uvm_test_top.envh.h_agt.drvh [AHB_DRIVER] Printing from AHB DRIVER 
#  -----------------------------------------------------------------------------------
# Name                           Type      Size  Value                               
# -----------------------------------------------------------------------------------
# req                            h_xtn     -     @1069                               
#   begin_time                   time      64    15                                  
#   depth                        int       32    'd2                                 
#   parent sequence (name)       string    6     wrap_4                              
#   parent sequence (full name)  string    36    uvm_test_top.envh.h_agt.seqrh.wrap_4
#   sequencer                    string    29    uvm_test_top.envh.h_agt.seqrh       
#   hready_out                   integral  1     'b0                                 
#   hready_in                    integral  1     'b0                                 
#   haddr                        integral  32    'h8c0000d6                          
#   hsize                        integral  2     'd0                                 
#   hburst                       integral  3     'd0                                 
#   htrans                       integral  2     'h2                                 
#   hwrite                       integral  1     'b1                                 
#   hwdata                       integral  32    'h62835286                          
#   hrdata                       integral  32    'h0                                 
# -----------------------------------------------------------------------------------
# 
# ADDRESS PHASE STARTS DRIVING :                   25
# Width = 32, size 8 bits
#                   35 ENTERED:&&
#                   35BYTE0_endian1
#                   35 ENTERED:&&
#                   35BYTE2_endian1
# DATA PHASE STARTS DRIVING :                   35
# UVM_INFO ../ahb_agt_top/h_driver.sv(84) @ 35: uvm_test_top.envh.h_agt.drvh [AHB_DRIVER] Printing from AHB DRIVER 
#  -----------------------------------------------------------------------------------
# Name                           Type      Size  Value                               
# -----------------------------------------------------------------------------------
# req                            h_xtn     -     @1069                               
#   begin_time                   time      64    25                                  
#   end_time                     time      64    25                                  
#   depth                        int       32    'd2                                 
#   parent sequence (name)       string    6     wrap_4                              
#   parent sequence (full name)  string    36    uvm_test_top.envh.h_agt.seqrh.wrap_4
#   sequencer                    string    29    uvm_test_top.envh.h_agt.seqrh       
#   hready_out                   integral  1     'b0                                 
#   hready_in                    integral  1     'b0                                 
#   haddr                        integral  32    'h8c0000d7                          
#   hsize                        integral  2     'd0                                 
#   hburst                       integral  3     'd0                                 
#   htrans                       integral  2     'h3                                 
#   hwrite                       integral  1     'b1                                 
#   hwdata                       integral  32    'h1afeffbf                          
#   hrdata                       integral  32    'h0                                 
# -----------------------------------------------------------------------------------
# 
# UVM_INFO ../ahb_agt_top/h_monitor.sv(86) @ 35: uvm_test_top.envh.h_agt.monh [AHB MONITOR] Printing from AHB MONITOR 
# ----------------------------------------
# Name          Type      Size  Value     
# ----------------------------------------
# xtn           h_xtn     -     @1145     
#   hready_out  integral  1     'b0       
#   hready_in   integral  1     'b1       
#   haddr       integral  32    'h8c0000d6
#   hsize       integral  2     'd0       
#   hburst      integral  3     'd0       
#   htrans      integral  2     'h2       
#   hwrite      integral  1     'b1       
#   hwdata      integral  32    'h62835286
#   hrdata      integral  32    'h0       
# ----------------------------------------
# 
# AHB MONITOR STARTS COLLECTING DATA AT :                   35
# UVM_INFO ../tb/scoreboard.sv(110) @ 35: uvm_test_top.envh.sb [AHB SCOREBOARD] Printing from AHB SCOREBOARD 
#  ----------------------------------------
# Name          Type      Size  Value     
# ----------------------------------------
# xtn           h_xtn     -     @1145     
#   hready_out  integral  1     'b0       
#   hready_in   integral  1     'b1       
#   haddr       integral  32    'h8c0000d6
#   hsize       integral  2     'd0       
#   hburst      integral  3     'd0       
#   htrans      integral  2     'h2       
#   hwrite      integral  1     'b1       
#   hwdata      integral  32    'h62835286
#   hrdata      integral  32    'h0       
# ----------------------------------------
# 
# ADDRESS PHASE STARTS DRIVING :                   35
#                   45 ENTERED:&&
# UVM_INFO ../apb_agt_top/p_monitor.sv(73) @ 45: uvm_test_top.envh.p_agt.monh [APB MONITOR] Printing from APB MONITOR 
#  -------------------------------------
# Name       Type      Size  Value     
# -------------------------------------
# xtn        p_xtn     -     @1150     
#   PADDR    integral  32    'h8c0000d6
#   PWDATA   integral  32    'h83      
#   PRDATA   integral  32    'h0       
#   PSELx    integral  4     8         
#   PWRITE   integral  1     'b1       
#   PENABLE  integral  1     'b1       
# -------------------------------------
# 
# UVM_INFO ../tb/scoreboard.sv(116) @ 45: uvm_test_top.envh.sb [APB SCOREBOARD] Printing from APB SCOREBOARD 
#  -------------------------------------
# Name       Type      Size  Value     
# -------------------------------------
# xtn        p_xtn     -     @1150     
#   PADDR    integral  32    'h8c0000d6
#   PWDATA   integral  32    'h83      
#   PRDATA   integral  32    'h0       
#   PSELx    integral  4     8         
#   PWRITE   integral  1     'b1       
#   PENABLE  integral  1     'b1       
# -------------------------------------
# 
# ADDRESS COMPARED SUCCESSFULLY
# DATA COMPARED SUCCESSFUL
# SSSSSSSSSSSSSSSSSSSSSSSSSSSSSSS
# Width = 32, size 8 bits
#                   55 ENTERED:&&
#                   55BYTE2_endian1
#                   55 ENTERED:&&
#                   55BYTE0_endian1
# DATA PHASE STARTS DRIVING :                   55
# UVM_INFO ../ahb_agt_top/h_driver.sv(84) @ 55: uvm_test_top.envh.h_agt.drvh [AHB_DRIVER] Printing from AHB DRIVER 
#  -----------------------------------------------------------------------------------
# Name                           Type      Size  Value                               
# -----------------------------------------------------------------------------------
# req                            h_xtn     -     @1069                               
#   begin_time                   time      64    35                                  
#   end_time                     time      64    35                                  
#   depth                        int       32    'd2                                 
#   parent sequence (name)       string    6     wrap_4                              
#   parent sequence (full name)  string    36    uvm_test_top.envh.h_agt.seqrh.wrap_4
#   sequencer                    string    29    uvm_test_top.envh.h_agt.seqrh       
#   hready_out                   integral  1     'b0                                 
#   hready_in                    integral  1     'b0                                 
#   haddr                        integral  32    'h8c0000d4                          
#   hsize                        integral  2     'd0                                 
#   hburst                       integral  3     'd0                                 
#   htrans                       integral  2     'h3                                 
#   hwrite                       integral  1     'b1                                 
#   hwdata                       integral  32    'hdb2691dd                          
#   hrdata                       integral  32    'h0                                 
# -----------------------------------------------------------------------------------
# 
# UVM_INFO ../ahb_agt_top/h_monitor.sv(86) @ 55: uvm_test_top.envh.h_agt.monh [AHB MONITOR] Printing from AHB MONITOR 
# ----------------------------------------
# Name          Type      Size  Value     
# ----------------------------------------
# xtn           h_xtn     -     @1154     
#   hready_out  integral  1     'b0       
#   hready_in   integral  1     'b1       
#   haddr       integral  32    'h8c0000d7
#   hsize       integral  2     'd0       
#   hburst      integral  3     'd0       
#   htrans      integral  2     'h3       
#   hwrite      integral  1     'b1       
#   hwdata      integral  32    'h1afeffbf
#   hrdata      integral  32    'h0       
# ----------------------------------------
# 
# AHB MONITOR STARTS COLLECTING DATA AT :                   55
# UVM_INFO ../tb/scoreboard.sv(110) @ 55: uvm_test_top.envh.sb [AHB SCOREBOARD] Printing from AHB SCOREBOARD 
#  ----------------------------------------
# Name          Type      Size  Value     
# ----------------------------------------
# xtn           h_xtn     -     @1154     
#   hready_out  integral  1     'b0       
#   hready_in   integral  1     'b1       
#   haddr       integral  32    'h8c0000d7
#   hsize       integral  2     'd0       
#   hburst      integral  3     'd0       
#   htrans      integral  2     'h3       
#   hwrite      integral  1     'b1       
#   hwdata      integral  32    'h1afeffbf
#   hrdata      integral  32    'h0       
# ----------------------------------------
# 
# ADDRESS PHASE STARTS DRIVING :                   55
#                   65 ENTERED:&&
# UVM_INFO ../apb_agt_top/p_monitor.sv(73) @ 65: uvm_test_top.envh.p_agt.monh [APB MONITOR] Printing from APB MONITOR 
#  -------------------------------------
# Name       Type      Size  Value     
# -------------------------------------
# xtn        p_xtn     -     @1162     
#   PADDR    integral  32    'h8c0000d4
#   PWDATA   integral  32    'hbf      
#   PRDATA   integral  32    'h0       
#   PSELx    integral  4     8         
#   PWRITE   integral  1     'b1       
#   PENABLE  integral  1     'b1       
# -------------------------------------
# 
# UVM_INFO ../tb/scoreboard.sv(116) @ 65: uvm_test_top.envh.sb [APB SCOREBOARD] Printing from APB SCOREBOARD 
#  -------------------------------------
# Name       Type      Size  Value     
# -------------------------------------
# xtn        p_xtn     -     @1162     
#   PADDR    integral  32    'h8c0000d4
#   PWDATA   integral  32    'hbf      
#   PRDATA   integral  32    'h0       
#   PSELx    integral  4     8         
#   PWRITE   integral  1     'b1       
#   PENABLE  integral  1     'b1       
# -------------------------------------
# 
# ADDRESS COMPARISON UNSUCCESSFUL
# HADDR : 8c0000d7 
#  PADDR : 8c0000d4
# DATA COMPARISON UNSUCCESSFUL
# HWDATA : 0000001a 
#  PWDATA : 000000bf
# SSSSSSSSSSSSSSSSSSSSSSSSSSSSSSS
# Width = 32, size 8 bits
#                   75 ENTERED:&&
#                   75BYTE0_endian1
#                   75 ENTERED:&&
#                   75BYTE1_endian1
# DATA PHASE STARTS DRIVING :                   75
# UVM_INFO ../ahb_agt_top/h_driver.sv(84) @ 75: uvm_test_top.envh.h_agt.drvh [AHB_DRIVER] Printing from AHB DRIVER 
#  -----------------------------------------------------------------------------------
# Name                           Type      Size  Value                               
# -----------------------------------------------------------------------------------
# req                            h_xtn     -     @1069                               
#   begin_time                   time      64    55                                  
#   end_time                     time      64    55                                  
#   depth                        int       32    'd2                                 
#   parent sequence (name)       string    6     wrap_4                              
#   parent sequence (full name)  string    36    uvm_test_top.envh.h_agt.seqrh.wrap_4
#   sequencer                    string    29    uvm_test_top.envh.h_agt.seqrh       
#   hready_out                   integral  1     'b0                                 
#   hready_in                    integral  1     'b0                                 
#   haddr                        integral  32    'h8c0000d5                          
#   hsize                        integral  2     'd0                                 
#   hburst                       integral  3     'd0                                 
#   htrans                       integral  2     'h3                                 
#   hwrite                       integral  1     'b1                                 
#   hwdata                       integral  32    'h4cf850c3                          
#   hrdata                       integral  32    'h0                                 
# -----------------------------------------------------------------------------------
# 
# UVM_INFO ../ahb_agt_top/h_monitor.sv(86) @ 75: uvm_test_top.envh.h_agt.monh [AHB MONITOR] Printing from AHB MONITOR 
# ----------------------------------------
# Name          Type      Size  Value     
# ----------------------------------------
# xtn           h_xtn     -     @1158     
#   hready_out  integral  1     'b0       
#   hready_in   integral  1     'b1       
#   haddr       integral  32    'h8c0000d4
#   hsize       integral  2     'd0       
#   hburst      integral  3     'd0       
#   htrans      integral  2     'h3       
#   hwrite      integral  1     'b1       
#   hwdata      integral  32    'hdb2691dd
#   hrdata      integral  32    'h0       
# ----------------------------------------
# 
# AHB MONITOR STARTS COLLECTING DATA AT :                   75
# UVM_INFO ../tb/scoreboard.sv(110) @ 75: uvm_test_top.envh.sb [AHB SCOREBOARD] Printing from AHB SCOREBOARD 
#  ----------------------------------------
# Name          Type      Size  Value     
# ----------------------------------------
# xtn           h_xtn     -     @1158     
#   hready_out  integral  1     'b0       
#   hready_in   integral  1     'b1       
#   haddr       integral  32    'h8c0000d4
#   hsize       integral  2     'd0       
#   hburst      integral  3     'd0       
#   htrans      integral  2     'h3       
#   hwrite      integral  1     'b1       
#   hwdata      integral  32    'hdb2691dd
#   hrdata      integral  32    'h0       
# ----------------------------------------
# 
# PRDATA is going to start
# PRDATA GENERATED: 12153524
# UVM_INFO ../apb_agt_top/p_driver.sv(56) @ 75: uvm_test_top.envh.p_agt.drvh [APB DRIVER] Printing from APB DRIVER  
#  --------------------------------------------------------------------------------
# Name                           Type      Size  Value                            
# --------------------------------------------------------------------------------
# req                            p_xtn     -     @1175                            
#   begin_time                   time      64    75                               
#   depth                        int       32    'd2                              
#   parent sequence (name)       string    3     apb                              
#   parent sequence (full name)  string    33    uvm_test_top.envh.p_agt.seqrh.apb
#   sequencer                    string    29    uvm_test_top.envh.p_agt.seqrh    
#   PADDR                        integral  32    'h0                              
#   PWDATA                       integral  32    'h0                              
#   PRDATA                       integral  32    'h12153524                       
#   PSELx                        integral  4     'd0                              
#   PWRITE                       integral  1     'b0                              
#   PENABLE                      integral  1     'b0                              
# --------------------------------------------------------------------------------
# 
#                   85 ENTERED:&&
# UVM_INFO ../apb_agt_top/p_monitor.sv(73) @ 85: uvm_test_top.envh.p_agt.monh [APB MONITOR] Printing from APB MONITOR 
#  -------------------------------------
# Name       Type      Size  Value     
# -------------------------------------
# xtn        p_xtn     -     @1179     
#   PADDR    integral  32    'h8c0000d5
#   PWDATA   integral  32    'h91      
#   PRDATA   integral  32    'h0       
#   PSELx    integral  4     8         
#   PWRITE   integral  1     'b1       
#   PENABLE  integral  1     'b1       
# -------------------------------------
# 
# UVM_INFO ../tb/scoreboard.sv(116) @ 85: uvm_test_top.envh.sb [APB SCOREBOARD] Printing from APB SCOREBOARD 
#  -------------------------------------
# Name       Type      Size  Value     
# -------------------------------------
# xtn        p_xtn     -     @1179     
#   PADDR    integral  32    'h8c0000d5
#   PWDATA   integral  32    'h91      
#   PRDATA   integral  32    'h0       
#   PSELx    integral  4     8         
#   PWRITE   integral  1     'b1       
#   PENABLE  integral  1     'b1       
# -------------------------------------
# 
# ADDRESS COMPARISON UNSUCCESSFUL
# HADDR : 8c0000d4 
#  PADDR : 8c0000d5
# DATA COMPARISON UNSUCCESSFUL
# HWDATA : 000000dd 
#  PWDATA : 00000091
# SSSSSSSSSSSSSSSSSSSSSSSSSSSSSSS
# Width = 32, size 8 bits
#                   95 ENTERED:&&
#                   95BYTE1_endian1
# UVM_INFO ../ahb_agt_top/h_monitor.sv(86) @ 95: uvm_test_top.envh.h_agt.monh [AHB MONITOR] Printing from AHB MONITOR 
# ----------------------------------------
# Name          Type      Size  Value     
# ----------------------------------------
# xtn           h_xtn     -     @1166     
#   hready_out  integral  1     'b0       
#   hready_in   integral  1     'b1       
#   haddr       integral  32    'h8c0000d5
#   hsize       integral  2     'd0       
#   hburst      integral  3     'd0       
#   htrans      integral  2     'h3       
#   hwrite      integral  1     'b1       
#   hwdata      integral  32    'h4cf850c3
#   hrdata      integral  32    'h0       
# ----------------------------------------
# 
# AHB MONITOR STARTS COLLECTING DATA AT :                   95
# UVM_INFO ../tb/scoreboard.sv(110) @ 95: uvm_test_top.envh.sb [AHB SCOREBOARD] Printing from AHB SCOREBOARD 
#  ----------------------------------------
# Name          Type      Size  Value     
# ----------------------------------------
# xtn           h_xtn     -     @1166     
#   hready_out  integral  1     'b0       
#   hready_in   integral  1     'b1       
#   haddr       integral  32    'h8c0000d5
#   hsize       integral  2     'd0       
#   hburst      integral  3     'd0       
#   htrans      integral  2     'h3       
#   hwrite      integral  1     'b1       
#   hwdata      integral  32    'h4cf850c3
#   hrdata      integral  32    'h0       
# ----------------------------------------
# 
#                  105 ENTERED:&&
# UVM_INFO ../apb_agt_top/p_monitor.sv(73) @ 105: uvm_test_top.envh.p_agt.monh [APB MONITOR] Printing from APB MONITOR 
#  -------------------------------------
# Name       Type      Size  Value     
# -------------------------------------
# xtn        p_xtn     -     @1187     
#   PADDR    integral  32    'h8c0000d5
#   PWDATA   integral  32    'h50      
#   PRDATA   integral  32    'h0       
#   PSELx    integral  4     8         
#   PWRITE   integral  1     'b1       
#   PENABLE  integral  1     'b1       
# -------------------------------------
# 
# UVM_INFO ../tb/scoreboard.sv(116) @ 105: uvm_test_top.envh.sb [APB SCOREBOARD] Printing from APB SCOREBOARD 
#  -------------------------------------
# Name       Type      Size  Value     
# -------------------------------------
# xtn        p_xtn     -     @1187     
#   PADDR    integral  32    'h8c0000d5
#   PWDATA   integral  32    'h50      
#   PRDATA   integral  32    'h0       
#   PSELx    integral  4     8         
#   PWRITE   integral  1     'b1       
#   PENABLE  integral  1     'b1       
# -------------------------------------
# 
# ADDRESS COMPARED SUCCESSFULLY
# DATA COMPARED SUCCESSFUL
# SSSSSSSSSSSSSSSSSSSSSSSSSSSSSSS
# UVM_INFO verilog_src/uvm-1.1d/src/base/uvm_objection.svh(1267) @ 105: reporter [TEST_DONE] 'run' phase is ready to proceed to the 'extract' phase
# UVM_INFO @ 105: reporter [UVMTOP] UVM testbench topology:
# ------------------------------------------------------------------
# Name                       Type                        Size  Value
# ------------------------------------------------------------------
# uvm_test_top               wrap_4_test                 -     @478 
#   envh                     env                         -     @494 
#     h_agt                  ahb_agent                   -     @506 
#       drvh                 h_driver                    -     @657 
#         rsp_port           uvm_analysis_port           -     @672 
#         seq_item_port      uvm_seq_item_pull_port      -     @664 
#       monh                 h_monitor                   -     @642 
#         monitor_port       uvm_analysis_port           -     @649 
#       seqrh                h_sequencer                 -     @680 
#         rsp_export         uvm_analysis_export         -     @687 
#         seq_item_export    uvm_seq_item_pull_imp       -     @781 
#         arbitration_queue  array                       0     -    
#         lock_queue         array                       0     -    
#         num_last_reqs      integral                    32    'd1  
#         num_last_rsps      integral                    32    'd1  
#     p_agt                  apb_agent                   -     @517 
#       drvh                 p_driver                    -     @813 
#         rsp_port           uvm_analysis_port           -     @828 
#         seq_item_port      uvm_seq_item_pull_port      -     @820 
#       monh                 p_monitor                   -     @798 
#         monitor_port       uvm_analysis_port           -     @805 
#       seqrh                p_sequencer                 -     @836 
#         rsp_export         uvm_analysis_export         -     @843 
#         seq_item_export    uvm_seq_item_pull_imp       -     @937 
#         arbitration_queue  array                       0     -    
#         lock_queue         array                       0     -    
#         num_last_reqs      integral                    32    'd1  
#         num_last_rsps      integral                    32    'd1  
#     sb                     scoreboard                  -     @633 
#       fifo_h               uvm_tlm_analysis_fifo #(T)  -     @952 
#         analysis_export    uvm_analysis_imp            -     @991 
#         get_ap             uvm_analysis_port           -     @983 
#         get_peek_export    uvm_get_peek_imp            -     @967 
#         put_ap             uvm_analysis_port           -     @975 
#         put_export         uvm_put_imp                 -     @959 
#       fifo_p               uvm_tlm_analysis_fifo #(T)  -     @999 
#         analysis_export    uvm_analysis_imp            -     @1038
#         get_ap             uvm_analysis_port           -     @1030
#         get_peek_export    uvm_get_peek_imp            -     @1014
#         put_ap             uvm_analysis_port           -     @1022
#         put_export         uvm_put_imp                 -     @1006
#     v_seqr                 v_sequencer                 -     @524 
#       rsp_export           uvm_analysis_export         -     @531 
#       seq_item_export      uvm_seq_item_pull_imp       -     @625 
#       arbitration_queue    array                       0     -    
#       lock_queue           array                       0     -    
#       num_last_reqs        integral                    32    'd1  
#       num_last_rsps        integral                    32    'd1  
# ------------------------------------------------------------------
# 
# 
# --- UVM Report Summary ---
# 
# ** Report counts by severity
# UVM_INFO :   26
# UVM_WARNING :    0
# UVM_ERROR :    0
# UVM_FATAL :    0
# ** Report counts by id
# [AHB MONITOR]     4
# [AHB SCOREBOARD]     4
# [AHB_DRIVER]     4
# [APB DRIVER]     1
# [APB MONITOR]     4
# [APB SCOREBOARD]     4
# [Questa UVM]     2
# [RNTST]     1
# [TEST_DONE]     1
# [UVMTOP]     1
# ** Note: $finish    : C:/questasim64_2021.1/win64/../verilog_src/uvm-1.1d/src/base/uvm_root.svh(430)
#    Time: 105 ns  Iteration: 69  Instance: /top
# End time: 23:52:55 on Jul 10,2025, Elapsed time: 0:00:03
# Errors: 0, Warnings: 1
